Time [s], Analyzer Name, Decoded Protocol Result
7.657604000000000,I2C,Setup Read to [C] + NAK
7.662198000000000,I2C,Setup Read to [M] + NAK
7.662964000000000,I2C,Setup Read to [E] + NAK
7.663730000000000,I2C,Setup Write to [@] + NAK
7.664484000000000,I2C,Setup Write to [D] + NAK
7.665240000000000,I2C,Setup Write to [F] + NAK
7.665996000000000,I2C,Setup Write to [N] + NAK
7.666752000000000,I2C,Setup Write to [L] + NAK
7.667506000000000,I2C,Setup Write to [L] + NAK
7.668262000000000,I2C,Setup Write to ['144'] + NAK
7.673168000000000,I2C,Setup Write to ['146'] + NAK
7.673924000000000,I2C,Setup Write to ['148'] + ACK
7.674416000000000,I2C,'5' + ACK
7.675212000000000,I2C,Setup Read to ['149'] + ACK
7.675684000000000,I2C,'5' + ACK
7.676158000000000,I2C,'0' + ACK
7.676630000000000,I2C,'0' + ACK
7.677108000000000,I2C,B + NAK
7.677874000000000,I2C,Setup Write to ['150'] + ACK
7.678366000000000,I2C,'5' + ACK
7.679162000000000,I2C,Setup Read to ['151'] + ACK
7.679784000000000,I2C,L + ACK
7.684632000000000,I2C,'255' + ACK
7.685104000000000,I2C,0 + ACK
7.685584000000000,I2C,M + NAK
7.686348000000000,I2C,Setup Write to ['152'] + ACK
7.686840000000000,I2C,'5' + ACK
7.687638000000000,I2C,Setup Read to ['153'] + ACK
7.688110000000000,I2C,D + ACK
7.688582000000000,I2C,D + ACK
7.689054000000000,I2C,D + ACK
7.689534000000000,I2C,D + NAK
7.690300000000000,I2C,Setup Write to ['160'] + NAK
7.695752000000000,I2C,Setup Read to ['161'] + NAK
7.696516000000000,I2C,Setup Write to ['162'] + NAK
7.697272000000000,I2C,Setup Read to ['163'] + NAK
7.698038000000000,I2C,Setup Write to ['164'] + NAK
7.698794000000000,I2C,Setup Read to ['165'] + NAK
7.699558000000000,I2C,Setup Write to ['166'] + NAK
7.700314000000000,I2C,Setup Read to ['167'] + NAK
7.701078000000000,I2C,Setup Write to ['168'] + NAK
7.701982000000000,I2C,Setup Read to ['169'] + NAK
7.725624000000000,I2C,Setup Write to ['170'] + NAK
7.726378000000000,I2C,Setup Read to ['171'] + NAK
7.727144000000000,I2C,Setup Write to ['172'] + NAK
7.727900000000000,I2C,Setup Read to ['173'] + NAK
7.728664000000000,I2C,Setup Write to ['174'] + NAK
7.729420000000000,I2C,Setup Read to ['175'] + NAK
7.730828000000000,I2C,Setup Read to [C] + NAK
7.731592000000000,I2C,Setup Read to [M] + NAK
7.732358000000000,I2C,Setup Read to [E] + NAK
7.733124000000000,I2C,Setup Write to [@] + NAK
7.733878000000000,I2C,Setup Write to [D] + NAK
7.734634000000000,I2C,Setup Write to [F] + NAK
7.735538000000000,I2C,Setup Write to [N] + NAK
7.740656000000000,I2C,Setup Write to [L] + NAK
7.741412000000000,I2C,Setup Write to [L] + NAK
7.742166000000000,I2C,Setup Write to ['144'] + NAK
7.742922000000000,I2C,Setup Write to ['146'] + NAK
7.743678000000000,I2C,Setup Write to ['148'] + ACK
7.744170000000000,I2C,'5' + ACK
7.744966000000000,I2C,Setup Read to ['149'] + ACK
7.745440000000000,I2C,'5' + ACK
7.745912000000000,I2C,'0' + ACK
7.746532000000000,I2C,'0' + ACK
7.751374000000000,I2C,B + NAK
7.752140000000000,I2C,Setup Write to ['150'] + ACK
7.752632000000000,I2C,'5' + ACK
7.753428000000000,I2C,Setup Read to ['151'] + ACK
7.753902000000000,I2C,L + ACK
7.754374000000000,I2C,'255' + ACK
7.754846000000000,I2C,0 + ACK
7.755326000000000,I2C,M + NAK
7.756090000000000,I2C,Setup Write to ['152'] + ACK
7.756582000000000,I2C,'5' + ACK
7.757526000000000,I2C,Setup Read to ['153'] + ACK
7.762566000000000,I2C,D + ACK
7.763038000000000,I2C,D + ACK
7.763510000000000,I2C,D + ACK
7.763990000000000,I2C,D + NAK
7.764756000000000,I2C,Setup Write to ['160'] + NAK
7.765510000000000,I2C,Setup Read to ['161'] + NAK
7.766312000000000,I2C,Setup Write to ['162'] + NAK
7.766916000000000,I2C,Setup Read to ['163'] + NAK
7.767530000000000,I2C,Setup Write to ['164'] + NAK
7.768134000000000,I2C,Setup Read to ['165'] + NAK
7.768896000000000,I2C,Setup Write to ['166'] + NAK
7.774050000000000,I2C,Setup Read to ['167'] + NAK
7.774664000000000,I2C,Setup Write to ['168'] + NAK
7.775270000000000,I2C,Setup Read to ['169'] + NAK
7.775884000000000,I2C,Setup Write to ['170'] + NAK
7.776488000000000,I2C,Setup Read to ['171'] + NAK
7.777102000000000,I2C,Setup Write to ['172'] + NAK
7.777708000000000,I2C,Setup Read to ['173'] + NAK
7.778322000000000,I2C,Setup Write to ['174'] + NAK
7.778926000000000,I2C,Setup Read to ['175'] + NAK
7.780330000000000,I2C,Setup Read to [C] + NAK
7.785482000000000,I2C,Setup Read to [M] + NAK
7.786096000000000,I2C,Setup Read to [E] + NAK
7.786710000000000,I2C,Setup Write to [@] + NAK
7.787316000000000,I2C,Setup Write to [D] + NAK
7.787920000000000,I2C,Setup Write to [F] + NAK
7.788524000000000,I2C,Setup Write to [N] + NAK
7.789128000000000,I2C,Setup Write to [L] + NAK
7.789734000000000,I2C,Setup Write to [L] + NAK
7.790338000000000,I2C,Setup Write to ['144'] + NAK
7.791090000000000,I2C,Setup Write to ['146'] + NAK
7.796268000000000,I2C,Setup Write to ['148'] + ACK
7.796592000000000,I2C,'5' + ACK
7.797238000000000,I2C,Setup Read to ['149'] + ACK
7.797542000000000,I2C,'5' + ACK
7.797846000000000,I2C,'0' + ACK
7.798150000000000,I2C,'0' + ACK
7.798462000000000,I2C,B + NAK
7.799076000000000,I2C,Setup Write to ['150'] + ACK
7.799400000000000,I2C,'5' + ACK
7.800046000000000,I2C,Setup Read to ['151'] + ACK
7.800350000000000,I2C,L + ACK
7.800654000000000,I2C,'255' + ACK
7.800958000000000,I2C,0 + ACK
7.801270000000000,I2C,M + NAK
7.802032000000000,I2C,Setup Write to ['152'] + ACK
7.806880000000000,I2C,'5' + ACK
7.807526000000000,I2C,Setup Read to ['153'] + ACK
7.807832000000000,I2C,D + ACK
7.808136000000000,I2C,D + ACK
7.808440000000000,I2C,D + ACK
7.808750000000000,I2C,D + NAK
7.809366000000000,I2C,Setup Write to ['160'] + NAK
7.809970000000000,I2C,Setup Read to ['161'] + NAK
7.810584000000000,I2C,Setup Write to ['162'] + NAK
7.811188000000000,I2C,Setup Read to ['163'] + NAK
7.811802000000000,I2C,Setup Write to ['164'] + NAK
7.812408000000000,I2C,Setup Read to ['165'] + NAK
7.813170000000000,I2C,Setup Write to ['166'] + NAK
7.830496000000000,I2C,Setup Read to ['167'] + NAK
7.831112000000000,I2C,Setup Write to ['168'] + NAK
7.831716000000000,I2C,Setup Read to ['169'] + NAK
7.832330000000000,I2C,Setup Write to ['170'] + NAK
7.832934000000000,I2C,Setup Read to ['171'] + NAK
7.833548000000000,I2C,Setup Write to ['172'] + NAK
7.834154000000000,I2C,Setup Read to ['173'] + NAK
7.834768000000000,I2C,Setup Write to ['174'] + NAK
7.835520000000000,I2C,Setup Read to ['175'] + NAK
7.841326000000000,I2C,Setup Read to [C] + NAK
7.841940000000000,I2C,Setup Read to [M] + NAK
7.842554000000000,I2C,Setup Read to [E] + NAK
7.843168000000000,I2C,Setup Write to [@] + NAK
7.843774000000000,I2C,Setup Write to [D] + NAK
7.844378000000000,I2C,Setup Write to [F] + NAK
7.844982000000000,I2C,Setup Write to [N] + NAK
7.845588000000000,I2C,Setup Write to [L] + NAK
7.846192000000000,I2C,Setup Write to [L] + NAK
7.851480000000000,I2C,Setup Write to ['144'] + NAK
7.852086000000000,I2C,Setup Write to ['146'] + NAK
7.852690000000000,I2C,Setup Write to ['148'] + ACK
7.853014000000000,I2C,'5' + ACK
7.853660000000000,I2C,Setup Read to ['149'] + ACK
7.853964000000000,I2C,'5' + ACK
7.854268000000000,I2C,'0' + ACK
7.854572000000000,I2C,'0' + ACK
7.854884000000000,I2C,B + NAK
7.855498000000000,I2C,Setup Write to ['150'] + ACK
7.855822000000000,I2C,'5' + ACK
7.856468000000000,I2C,Setup Read to ['151'] + ACK
7.856772000000000,I2C,L + ACK
7.857076000000000,I2C,'255' + ACK
7.857380000000000,I2C,0 + ACK
7.862412000000000,I2C,M + NAK
7.863028000000000,I2C,Setup Write to ['152'] + ACK
7.863350000000000,I2C,'5' + ACK
7.863996000000000,I2C,Setup Read to ['153'] + ACK
7.864302000000000,I2C,D + ACK
7.864606000000000,I2C,D + ACK
7.864910000000000,I2C,D + ACK
7.865220000000000,I2C,D + NAK
7.865836000000000,I2C,Setup Write to ['160'] + NAK
7.866440000000000,I2C,Setup Read to ['161'] + NAK
7.867054000000000,I2C,Setup Write to ['162'] + NAK
7.867658000000000,I2C,Setup Read to ['163'] + NAK
7.868272000000000,I2C,Setup Write to ['164'] + NAK
7.873562000000000,I2C,Setup Read to ['165'] + NAK
7.874176000000000,I2C,Setup Write to ['166'] + NAK
7.874782000000000,I2C,Setup Read to ['167'] + NAK
7.875396000000000,I2C,Setup Write to ['168'] + NAK
7.876000000000000,I2C,Setup Read to ['169'] + NAK
7.876614000000000,I2C,Setup Write to ['170'] + NAK
7.877218000000000,I2C,Setup Read to ['171'] + NAK
7.877834000000000,I2C,Setup Write to ['172'] + NAK
7.878438000000000,I2C,Setup Read to ['173'] + NAK
7.879052000000000,I2C,Setup Write to ['174'] + NAK
7.879804000000000,I2C,Setup Read to ['175'] + NAK
7.885610000000000,I2C,Setup Read to [C] + NAK
7.886224000000000,I2C,Setup Read to [M] + NAK
7.886838000000000,I2C,Setup Read to [E] + NAK
7.887454000000000,I2C,Setup Write to [@] + NAK
7.888058000000000,I2C,Setup Write to [D] + NAK
7.888662000000000,I2C,Setup Write to [F] + NAK
7.889266000000000,I2C,Setup Write to [N] + NAK
7.889872000000000,I2C,Setup Write to [L] + NAK
7.890476000000000,I2C,Setup Write to [L] + NAK
7.895814000000000,I2C,Setup Write to ['144'] + NAK
7.896418000000000,I2C,Setup Write to ['146'] + NAK
7.897024000000000,I2C,Setup Write to ['148'] + ACK
7.897346000000000,I2C,'5' + ACK
7.897992000000000,I2C,Setup Read to ['149'] + ACK
7.898298000000000,I2C,'5' + ACK
7.900638000000000,I2C,'0' + ACK
8.016997999999999,I2C,'0' + ACK
8.021896000000000,I2C,B + NAK
8.022539999999999,I2C,Setup Write to ['150'] + ACK
8.022914000000000,I2C,'5' + ACK
8.023842000000000,I2C,Setup Read to ['151'] + ACK
8.024343999999999,I2C,L + ACK
8.029282000000000,I2C,'255' + ACK
8.029636000000000,I2C,0 + ACK
8.030182000000000,I2C,M + NAK
8.031012000000000,I2C,Setup Write to ['152'] + ACK
8.031383999999999,I2C,'5' + ACK
8.032314000000000,I2C,Setup Read to ['153'] + ACK
8.032667999999999,I2C,D + ACK
8.033206000000000,I2C,D + ACK
8.033557999999999,I2C,D + ACK
8.034103999999999,I2C,D + NAK
8.034936000000000,I2C,Setup Write to ['160'] + NAK
8.040324000000000,I2C,Setup Read to ['161'] + NAK
8.041036000000000,I2C,Setup Write to ['162'] + NAK
8.041738000000000,I2C,Setup Read to ['163'] + NAK
8.042384000000000,I2C,Setup Write to ['164'] + NAK
8.043020000000000,I2C,Setup Read to ['165'] + NAK
8.043666000000000,I2C,Setup Write to ['166'] + NAK
8.044302000000000,I2C,Setup Read to ['167'] + NAK
8.044945999999999,I2C,Setup Write to ['168'] + NAK
8.045582000000000,I2C,Setup Read to ['169'] + NAK
8.046227999999999,I2C,Setup Write to ['170'] + NAK
8.051627999999999,I2C,Setup Read to ['171'] + NAK
8.052339999999999,I2C,Setup Write to ['172'] + NAK
8.053042000000000,I2C,Setup Read to ['173'] + NAK
8.053754000000000,I2C,Setup Write to ['174'] + NAK
8.054390000000000,I2C,Setup Read to ['175'] + NAK
8.055744000000001,I2C,Setup Read to [C] + NAK
8.056390000000000,I2C,Setup Read to [M] + NAK
8.057102000000000,I2C,Setup Read to [E] + NAK
8.057896000000000,I2C,Setup Write to [@] + NAK
8.063027999999999,I2C,Setup Write to [D] + NAK
8.063663999999999,I2C,Setup Write to [F] + NAK
8.064299999999999,I2C,Setup Write to [N] + NAK
8.065187999999999,I2C,Setup Write to [L] + NAK
8.065823999999999,I2C,Setup Write to [L] + NAK
8.066459999999999,I2C,Setup Write to ['144'] + NAK
8.067348000000001,I2C,Setup Write to ['146'] + NAK
8.067983999999999,I2C,Setup Write to ['148'] + ACK
8.068356000000000,I2C,'5' + ACK
8.073904000000001,I2C,Setup Read to ['149'] + ACK
8.074441999999999,I2C,'5' + ACK
8.074982000000000,I2C,'0' + ACK
8.075334000000000,I2C,'0' + ACK
8.075880000000000,I2C,B + NAK
8.076712000000001,I2C,Setup Write to ['150'] + ACK
8.077083999999999,I2C,'5' + ACK
8.078011999999999,I2C,Setup Read to ['151'] + ACK
8.078366000000001,I2C,L + ACK
8.078904000000000,I2C,'255' + ACK
8.079257999999999,I2C,0 + ACK
8.079952000000000,I2C,M + NAK
8.085212000000000,I2C,Setup Write to ['152'] + ACK
8.085584000000001,I2C,'5' + ACK
8.086513999999999,I2C,Setup Read to ['153'] + ACK
8.086868000000001,I2C,D + ACK
8.087406000000000,I2C,D + ACK
8.087944000000000,I2C,D + ACK
8.088304000000001,I2C,D + NAK
8.089202000000000,I2C,Setup Write to ['160'] + NAK
8.089838000000000,I2C,Setup Read to ['161'] + NAK
8.090484000000000,I2C,Setup Write to ['162'] + NAK
8.095841999999999,I2C,Setup Read to ['163'] + NAK
8.096488000000001,I2C,Setup Write to ['164'] + NAK
8.097124000000001,I2C,Setup Read to ['165'] + NAK
8.097768000000000,I2C,Setup Write to ['166'] + NAK
8.098406000000001,I2C,Setup Read to ['167'] + NAK
8.099118000000001,I2C,Setup Write to ['168'] + NAK
8.099754000000001,I2C,Setup Read to ['169'] + NAK
8.100398000000000,I2C,Setup Write to ['170'] + NAK
8.101034000000000,I2C,Setup Read to ['171'] + NAK
8.101680000000000,I2C,Setup Write to ['172'] + NAK
8.107068000000000,I2C,Setup Read to ['173'] + NAK
8.107780000000000,I2C,Setup Write to ['174'] + NAK
8.108482000000000,I2C,Setup Read to ['175'] + NAK
8.109769999999999,I2C,Setup Read to [C] + NAK
8.110481999999999,I2C,Setup Read to [M] + NAK
8.111128000000001,I2C,Setup Read to [E] + NAK
8.111840000000001,I2C,Setup Write to [@] + NAK
8.112475999999999,I2C,Setup Write to [D] + NAK
8.113446000000000,I2C,Setup Write to [F] + NAK
8.131228000000000,I2C,Setup Write to [N] + NAK
8.131930000000001,I2C,Setup Write to [L] + NAK
8.132566000000001,I2C,Setup Write to [L] + NAK
8.133202000000001,I2C,Setup Write to ['144'] + NAK
8.134090000000000,I2C,Setup Write to ['146'] + NAK
8.134726000000001,I2C,Setup Write to ['148'] + ACK
8.135100000000000,I2C,'5' + ACK
8.140540000000000,I2C,Setup Read to ['149'] + ACK
8.140893999999999,I2C,'5' + ACK
8.141246000000001,I2C,'0' + ACK
8.141598000000000,I2C,'0' + ACK
8.142144000000000,I2C,B + NAK
8.142976000000001,I2C,Setup Write to ['150'] + ACK
8.143348000000000,I2C,'5' + ACK
8.144278000000000,I2C,Setup Read to ['151'] + ACK
8.144632000000000,I2C,L + ACK
8.145170000000000,I2C,'255' + ACK
8.145522000000000,I2C,0 + ACK
8.146068000000000,I2C,M + NAK
8.151529999999999,I2C,Setup Write to ['152'] + ACK
8.151902000000000,I2C,'5' + ACK
8.152580000000000,I2C,Setup Read to ['153'] + ACK
8.152934000000000,I2C,D + ACK
8.153286000000000,I2C,D + ACK
8.153824000000000,I2C,D + ACK
8.154184000000001,I2C,D + NAK
8.154896000000001,I2C,Setup Write to ['160'] + NAK
8.155531999999999,I2C,Setup Read to ['161'] + NAK
8.156178000000001,I2C,Setup Write to ['162'] + NAK
8.156814000000001,I2C,Setup Read to ['163'] + NAK
8.157460000000000,I2C,Setup Write to ['164'] + NAK
8.162818000000000,I2C,Setup Read to ['165'] + NAK
8.163463999999999,I2C,Setup Write to ['166'] + NAK
8.164099999999999,I2C,Setup Read to ['167'] + NAK
8.164745999999999,I2C,Setup Write to ['168'] + NAK
8.165381999999999,I2C,Setup Read to ['169'] + NAK
8.166028000000001,I2C,Setup Write to ['170'] + NAK
8.166664000000001,I2C,Setup Read to ['171'] + NAK
8.167310000000001,I2C,Setup Write to ['172'] + NAK
8.167946000000001,I2C,Setup Read to ['173'] + NAK
8.168592000000000,I2C,Setup Write to ['174'] + NAK
8.173857999999999,I2C,Setup Read to ['175'] + NAK
8.175146000000000,I2C,Setup Read to [C] + NAK
8.175792000000000,I2C,Setup Read to [M] + NAK
8.176504000000000,I2C,Setup Read to [E] + NAK
8.177149999999999,I2C,Setup Write to [@] + NAK
8.177785999999999,I2C,Setup Write to [D] + NAK
8.178421999999999,I2C,Setup Write to [F] + NAK
8.179057999999999,I2C,Setup Write to [N] + NAK
8.179694000000000,I2C,Setup Write to [L] + NAK
8.185091999999999,I2C,Setup Write to [L] + NAK
8.185794000000000,I2C,Setup Write to ['144'] + NAK
8.186432000000000,I2C,Setup Write to ['146'] + NAK
8.187068000000000,I2C,Setup Write to ['148'] + ACK
8.187440000000000,I2C,'5' + ACK
8.188368000000001,I2C,Setup Read to ['149'] + ACK
8.188722000000000,I2C,'5' + ACK
8.189260000000001,I2C,'0' + ACK
8.189614000000001,I2C,'0' + ACK
8.190160000000001,I2C,B + NAK
8.191020000000000,I2C,Setup Write to ['150'] + ACK
8.195910000000000,I2C,'5' + ACK
8.196588000000000,I2C,Setup Read to ['151'] + ACK
8.196942000000000,I2C,L + ACK
8.197293999999999,I2C,'255' + ACK
8.197834000000000,I2C,0 + ACK
8.198194000000001,I2C,M + NAK
8.198840000000001,I2C,Setup Write to ['152'] + ACK
8.199211999999999,I2C,'5' + ACK
8.200139999999999,I2C,Setup Read to ['153'] + ACK
8.200494000000001,I2C,D + ACK
8.201032000000000,I2C,D + ACK
8.201385999999999,I2C,D + ACK
8.201746000000000,I2C,D + NAK
8.207153999999999,I2C,Setup Write to ['160'] + NAK
8.207789999999999,I2C,Setup Read to ['161'] + NAK
8.208436000000001,I2C,Setup Write to ['162'] + NAK
8.209072000000001,I2C,Setup Read to ['163'] + NAK
8.209718000000001,I2C,Setup Write to ['164'] + NAK
8.210354000000001,I2C,Setup Read to ['165'] + NAK
8.211000000000000,I2C,Setup Write to ['166'] + NAK
8.211636000000000,I2C,Setup Read to ['167'] + NAK
8.212282000000000,I2C,Setup Write to ['168'] + NAK
8.212918000000000,I2C,Setup Read to ['169'] + NAK
8.218194000000000,I2C,Setup Write to ['170'] + NAK
8.218830000000001,I2C,Setup Read to ['171'] + NAK
8.219476000000000,I2C,Setup Write to ['172'] + NAK
8.220112000000000,I2C,Setup Read to ['173'] + NAK
8.220758000000000,I2C,Setup Write to ['174'] + NAK
8.221394000000000,I2C,Setup Read to ['175'] + NAK
8.222682000000001,I2C,Setup Read to [C] + NAK
8.223407999999999,I2C,Setup Read to [M] + NAK
8.224138000000000,I2C,Setup Read to [E] + NAK
8.235954000000000,I2C,Setup Write to [@] + NAK
8.241088000000000,I2C,Setup Write to [D] + NAK
8.241706000000001,I2C,Setup Write to [F] + NAK
8.242509999999999,I2C,Setup Write to [N] + NAK
8.243314000000000,I2C,Setup Write to [L] + NAK
8.244120000000001,I2C,Setup Write to [L] + NAK
8.244738000000000,I2C,Setup Write to ['144'] + NAK
8.245355999999999,I2C,Setup Write to ['146'] + NAK
8.245976000000001,I2C,Setup Write to ['148'] + ACK
8.246297999999999,I2C,'5' + ACK
8.251640000000000,I2C,Setup Read to ['149'] + ACK
8.251946000000000,I2C,'5' + ACK
8.252435999999999,I2C,'0' + ACK
8.252924000000000,I2C,'0' + ACK
8.253235999999999,I2C,B + NAK
8.254035999999999,I2C,Setup Write to ['150'] + ACK
8.254545999999999,I2C,'5' + ACK
8.255174000000000,I2C,Setup Read to ['151'] + ACK
8.255478000000000,I2C,L + ACK
8.255967999999999,I2C,'255' + ACK
8.256271999999999,I2C,0 + ACK
8.256769999999999,I2C,M + NAK
8.257384000000000,I2C,Setup Write to ['152'] + ACK
8.257854000000000,I2C,'5' + ACK
8.263070000000001,I2C,Setup Read to ['153'] + ACK
8.263560000000000,I2C,D + ACK
8.264049999999999,I2C,D + ACK
8.264354000000001,I2C,D + ACK
8.264849999999999,I2C,D + NAK
8.265464000000000,I2C,Setup Write to ['160'] + NAK
8.266083999999999,I2C,Setup Read to ['161'] + NAK
8.266693999999999,I2C,Setup Write to ['162'] + NAK
8.267312000000000,I2C,Setup Read to ['163'] + NAK
8.268126000000001,I2C,Setup Write to ['164'] + NAK
8.268894000000000,I2C,Setup Read to ['165'] + NAK
8.274046000000000,I2C,Setup Write to ['166'] + NAK
8.274666000000000,I2C,Setup Read to ['167'] + NAK
8.275294000000001,I2C,Setup Write to ['168'] + NAK
8.275895999999999,I2C,Setup Read to ['169'] + NAK
8.276524000000000,I2C,Setup Write to ['170'] + NAK
8.277328000000001,I2C,Setup Read to ['171'] + NAK
8.277956000000000,I2C,Setup Write to ['172'] + NAK
8.278760000000000,I2C,Setup Read to ['173'] + NAK
8.279574000000000,I2C,Setup Write to ['174'] + NAK
8.284860000000000,I2C,Setup Read to ['175'] + NAK
8.287015999999999,I2C,Setup Write to ['148'] + ACK
8.287338000000000,I2C,'5' + ACK
8.287984000000000,I2C,Setup Read to ['149'] + ACK
8.288290000000000,I2C,'5' + ACK
8.288594000000000,I2C,'0' + ACK
8.288898000000000,I2C,'0' + ACK
8.289208000000000,I2C,B + NAK
8.289823999999999,I2C,Setup Write to ['150'] + ACK
8.290146000000000,I2C,'5' + ACK
8.290792000000000,I2C,Setup Read to ['151'] + ACK
8.291244000000001,I2C,L + ACK
8.296134000000000,I2C,'255' + ACK
8.296438000000000,I2C,0 + ACK
8.296749999999999,I2C,M + NAK
8.297348000000000,I2C,Setup Write to ['152'] + ACK
8.297670000000000,I2C,'5' + ACK
8.298298000000001,I2C,Setup Read to ['153'] + ACK
8.298603999999999,I2C,D + ACK
8.299094000000000,I2C,D + ACK
8.299398000000000,I2C,D + ACK
8.299708000000001,I2C,D + NAK
8.303264000000000,I2C,Setup Write to ['148'] + ACK
8.308138000000000,I2C,'5' + ACK
8.308782000000001,I2C,Setup Read to ['149'] + ACK
8.309087999999999,I2C,'5' + ACK
8.309578000000000,I2C,'0' + ACK
8.309882000000000,I2C,'0' + ACK
8.310192000000001,I2C,B + NAK
